Time	V(N001)	V(N002)	V(N003)	I(V1)	I(R1)	I(C1)	I(L1)	
0	0	0	-6.95288e-310	0	0	0	0	
0.0005	0.157054	0.157054	0.157054	5.55112e-17	-3.07809e-17	0	-3.47644e-313	
0.001	0.313953	0.235426	0.235426	-7.85269e-05	7.85269e-05	7.85269e-05	7.85269e-05	
0.0015	0.470542	0.274302	0.274263	-0.00019624	0.00019624	0.00019624	0.00019624	
0.002	0.626666	0.293295	0.293158	-0.000333371	0.000333371	0.000333371	0.000333371	
0.0025	0.782172	0.302222	0.301918	-0.00047995	0.00047995	0.00047995	0.00047995	
0.003	0.936907	0.305997	0.305453	-0.000630909	0.000630909	0.000630909	0.000630909	
0.0035	1.09072	0.30708	0.306221	-0.000783636	0.000783636	0.000783636	0.000783636	
0.004	1.24345	0.306703	0.305452	-0.000936746	0.000936746	0.000936746	0.000936746	
0.0045	1.39496	0.305483	0.303764	-0.00108947	0.00108947	0.00108947	0.00108947	
0.005	1.54508	0.303731	0.301467	-0.00124135	0.00124135	0.00124135	0.00124135	
0.0055	1.69369	0.301602	0.298717	-0.00139209	0.00139209	0.00139209	0.00139209	
0.006	1.84062	0.299177	0.295596	-0.00154145	0.00154145	0.00154145	0.00154145	
0.0065	1.98574	0.296496	0.292144	-0.00168924	0.00168924	0.00168924	0.00168924	
0.007	2.1289	0.293581	0.288384	-0.00183532	0.00183532	0.00183532	0.00183532	
0.0075	2.26995	0.290445	0.284331	-0.00197951	0.00197951	0.00197951	0.00197951	
0.008	2.40877	0.287095	0.279991	-0.00212167	0.00212167	0.00212167	0.00212167	
0.0085	2.54521	0.283538	0.275374	-0.00226167	0.00226167	0.00226167	0.00226167	
0.009	2.67913	0.279778	0.270483	-0.00239936	0.00239936	0.00239936	0.00239936	
0.0095	2.81042	0.27582	0.265325	-0.0025346	0.0025346	0.0025346	0.0025346	
0.01	2.93893	0.271667	0.259904	-0.00266726	0.00266726	0.00266726	0.00266726	
0.0105	3.06454	0.267324	0.254228	-0.00279721	0.00279721	0.00279721	0.00279721	
0.011	3.18712	0.262795	0.2483	-0.00292433	0.00292433	0.00292433	0.00292433	
0.0115	3.30656	0.258084	0.242127	-0.00304848	0.00304848	0.00304848	0.00304848	
0.012	3.42274	0.253197	0.235716	-0.00316954	0.00316954	0.00316954	0.00316954	
0.0125	3.53553	0.248137	0.229071	-0.0032874	0.0032874	0.0032874	0.0032874	
0.013	3.64484	0.242911	0.222201	-0.00340193	0.00340193	0.00340193	0.00340193	
0.0135	3.75056	0.237522	0.215112	-0.00351303	0.00351303	0.00351303	0.00351303	
0.014	3.85257	0.231977	0.20781	-0.00362059	0.00362059	0.00362059	0.00362059	
0.0145	3.95078	0.226281	0.200304	-0.00372449	0.00372449	0.00372449	0.00372449	
0.015	4.04508	0.220439	0.1926	-0.00382465	0.00382465	0.00382465	0.00382465	
0.0155	4.1354	0.214457	0.184705	-0.00392095	0.00392095	0.00392095	0.00392095	
0.016	4.22164	0.208341	0.176629	-0.0040133	0.0040133	0.0040133	0.0040133	
0.0165	4.30371	0.202097	0.168378	-0.00410161	0.00410161	0.00410161	0.00410161	
0.017	4.38153	0.195732	0.159962	-0.0041858	0.0041858	0.0041858	0.0041858	
0.0175	4.45503	0.18925	0.151387	-0.00426578	0.00426578	0.00426578	0.00426578	
0.018	4.52414	0.182659	0.142663	-0.00434148	0.00434148	0.00434148	0.00434148	
0.0185	4.58877	0.175965	0.133799	-0.00441281	0.00441281	0.00441281	0.00441281	
0.019	4.64888	0.169175	0.124802	-0.00447971	0.00447971	0.00447971	0.00447971	
0.0195	4.7044	0.162295	0.115683	-0.00454211	0.00454211	0.00454211	0.00454211	
0.02	4.75528	0.155333	0.106449	-0.00459995	0.00459995	0.00459995	0.00459995	
0.0205	4.80147	0.148294	0.0971104	-0.00465317	0.00465317	0.00465317	0.00465317	
0.021	4.84292	0.141186	0.087676	-0.00470173	0.00470173	0.00470173	0.00470173	
0.0215	4.87958	0.134016	0.0781551	-0.00474557	0.00474557	0.00474557	0.00474557	
0.022	4.91144	0.126791	0.0685572	-0.00478465	0.00478465	0.00478465	0.00478465	
0.0225	4.93844	0.119518	0.0588917	-0.00481892	0.00481892	0.00481892	0.00481892	
0.023	4.96057	0.112204	0.0491682	-0.00484837	0.00484837	0.00484837	0.00484837	
0.0235	4.97781	0.104856	0.0393962	-0.00487295	0.00487295	0.00487295	0.00487295	
0.024	4.99013	0.0974819	0.0295855	-0.00489265	0.00489265	0.00489265	0.00489265	
0.0245	4.99753	0.0900883	0.0197456	-0.00490744	0.00490744	0.00490744	0.00490744	
0.025	5	0.0826827	0.00988626	-0.00491732	0.00491732	0.00491732	0.00491732	
0.0255	4.99753	0.0752724	1.72722e-05	-0.00492226	0.00492226	0.00492226	0.00492226	
0.026	4.99013	0.0678646	-0.00985165	-0.00492227	0.00492227	0.00492227	0.00492227	
0.0265	4.97781	0.0604666	-0.0197108	-0.00491734	0.00491734	0.00491734	0.00491734	
0.027	4.96057	0.0530857	-0.0295504	-0.00490749	0.00490749	0.00490749	0.00490749	
0.0275	4.93844	0.0457291	-0.0393607	-0.00489271	0.00489271	0.00489271	0.00489271	
0.028	4.91144	0.038404	-0.0491322	-0.00487303	0.00487303	0.00487303	0.00487303	
0.0285	4.87958	0.0311176	-0.058855	-0.00484847	0.00484847	0.00484847	0.00484847	
0.029	4.84292	0.0238772	-0.0685198	-0.00481904	0.00481904	0.00481904	0.00481904	
0.0295	4.80147	0.0166897	-0.0781168	-0.00478478	0.00478478	0.00478478	0.00478478	
0.03	4.75528	0.0095622	-0.0876366	-0.00474572	0.00474572	0.00474572	0.00474572	
0.0305	4.7044	0.00250178	-0.0970699	-0.0047019	0.0047019	0.0047019	0.0047019	
0.031	4.64888	-0.00448468	-0.106407	-0.00465337	0.00465337	0.00465337	0.00465337	
0.0315	4.58877	-0.0113903	-0.11564	-0.00460016	0.00460016	0.00460016	0.00460016	
0.032	4.52414	-0.0182084	-0.124758	-0.00454234	0.00454234	0.00454234	0.00454234	
0.0325	4.45503	-0.0249321	-0.133753	-0.00447996	0.00447996	0.00447996	0.00447996	
0.033	4.38153	-0.031555	-0.142616	-0.00441309	0.00441309	0.00441309	0.00441309	
0.0335	4.30371	-0.0380705	-0.151338	-0.00434178	0.00434178	0.00434178	0.00434178	
0.034	4.22164	-0.0444722	-0.15991	-0.00426611	0.00426611	0.00426611	0.00426611	
0.0345	4.1354	-0.0507539	-0.168325	-0.00418616	0.00418616	0.00418616	0.00418616	
0.035	4.04508	-0.0569093	-0.176573	-0.00410199	0.00410199	0.00410199	0.00410199	
0.0355	3.95078	-0.0629325	-0.184648	-0.00401371	0.00401371	0.00401371	0.00401371	
0.036	3.85257	-0.0688175	-0.19254	-0.00392138	0.00392138	0.00392138	0.00392138	
0.0365	3.75056	-0.0745586	-0.200241	-0.00382511	0.00382511	0.00382511	0.00382511	
0.037	3.64484	-0.0801502	-0.207745	-0.00372499	0.00372499	0.00372499	0.00372499	
0.0375	3.53553	-0.0855867	-0.215044	-0.00362112	0.00362112	0.00362112	0.00362112	
0.038	3.42274	-0.0908629	-0.222131	-0.0035136	0.0035136	0.0035136	0.0035136	
0.0385	3.30656	-0.0959735	-0.228999	-0.00340253	0.00340253	0.00340253	0.00340253	
0.039	3.18712	-0.100914	-0.23564	-0.00328803	0.00328803	0.00328803	0.00328803	
0.0395	3.06454	-0.105678	-0.242049	-0.00317021	0.00317021	0.00317021	0.00317021	
0.04	2.93893	-0.110263	-0.248218	-0.00304919	0.00304919	0.00304919	0.00304919	
0.0405	2.81042	-0.114663	-0.254143	-0.00292508	0.00292508	0.00292508	0.00292508	
0.041	2.67913	-0.118874	-0.259817	-0.00279801	0.00279801	0.00279801	0.00279801	
0.0415	2.54521	-0.122893	-0.265234	-0.0026681	0.0026681	0.0026681	0.0026681	
0.042	2.40877	-0.126714	-0.27039	-0.00253548	0.00253548	0.00253548	0.00253548	
0.0425	2.26995	-0.130335	-0.275279	-0.00240029	0.00240029	0.00240029	0.00240029	
0.043	2.1289	-0.133752	-0.279895	-0.00226265	0.00226265	0.00226265	0.00226265	
0.0435	1.98574	-0.136961	-0.284236	-0.0021227	0.0021227	0.0021227	0.0021227	
0.044	1.84062	-0.13996	-0.288296	-0.00198058	0.00198058	0.00198058	0.00198058	
0.0445	1.69369	-0.142745	-0.292071	-0.00183643	0.00183643	0.00183643	0.00183643	
0.045	1.54508	-0.145314	-0.295559	-0.0016904	0.0016904	0.0016904	0.0016904	
0.0455	1.39496	-0.147664	-0.298754	-0.00154262	0.00154262	0.00154262	0.00154262	
0.046	1.24345	-0.149793	-0.301654	-0.00139324	0.00139324	0.00139324	0.00139324	
0.0465	1.09072	-0.151699	-0.304257	-0.00124242	0.00124242	0.00124242	0.00124242	
0.047	0.936907	-0.15338	-0.306559	-0.00109029	0.00109029	0.00109029	0.00109029	
0.0475	0.782172	-0.154835	-0.308559	-0.000937007	0.000937007	0.000937007	0.000937007	
0.048	0.626666	-0.156061	-0.310254	-0.000782728	0.000782728	0.000782728	0.000782728	
0.0485	0.470542	-0.157059	-0.311643	-0.000627601	0.000627601	0.000627601	0.000627601	
0.049	0.313953	-0.157826	-0.312724	-0.000471779	0.000471779	0.000471779	0.000471779	
0.0495	0.157054	-0.158363	-0.313497	-0.000315417	0.000315417	0.000315417	0.000315417	
0.05	-1.04899e-14	-0.158668	-0.31396	-0.000158668	0.000158668	0.000158668	0.000158668	
0.0505	-0.157054	-0.158742	-0.314113	-1.68848e-06	1.68848e-06	1.68848e-06	1.68848e-06	
0.051	-0.313953	-0.158585	-0.313956	0.000155368	-0.000155368	-0.000155368	-0.000155368	
0.0515	-0.470542	-0.158195	-0.313489	0.000312346	-0.000312346	-0.000312346	-0.000312346	
0.052	-0.626666	-0.157575	-0.312713	0.000469091	-0.000469091	-0.000469091	-0.000469091	
0.0525	-0.782172	-0.156725	-0.311628	0.000625447	-0.000625447	-0.000625447	-0.000625447	
0.053	-0.936907	-0.155645	-0.310236	0.000781261	-0.000781261	-0.000781261	-0.000781261	
0.0535	-1.09072	-0.154337	-0.308537	0.000936379	-0.000936379	-0.000936379	-0.000936379	
0.054	-1.24345	-0.152802	-0.306533	0.00109065	-0.00109065	-0.00109065	-0.00109065	
0.0545	-1.39496	-0.151041	-0.304227	0.00124391	-0.00124391	-0.00124391	-0.00124391	
0.055	-1.54508	-0.149057	-0.301621	0.00139603	-0.00139603	-0.00139603	-0.00139603	
0.0555	-1.69369	-0.146851	-0.298717	0.00154684	-0.00154684	-0.00154684	-0.00154684	
0.056	-1.84062	-0.144425	-0.295518	0.0016962	-0.0016962	-0.0016962	-0.0016962	
0.0565	-1.98574	-0.141783	-0.292028	0.00184396	-0.00184396	-0.00184396	-0.00184396	
0.057	-2.1289	-0.138926	-0.288249	0.00198997	-0.00198997	-0.00198997	-0.00198997	
0.0575	-2.26995	-0.135858	-0.284186	0.00213409	-0.00213409	-0.00213409	-0.00213409	
0.058	-2.40877	-0.132581	-0.279842	0.00227619	-0.00227619	-0.00227619	-0.00227619	
0.0585	-2.54521	-0.129099	-0.275221	0.00241611	-0.00241611	-0.00241611	-0.00241611	
0.059	-2.67913	-0.125415	-0.27033	0.00255372	-0.00255372	-0.00255372	-0.00255372	
0.0595	-2.81042	-0.121533	-0.265171	0.00268888	-0.00268888	-0.00268888	-0.00268888	
0.06	-2.93893	-0.117457	-0.25975	0.00282147	-0.00282147	-0.00282147	-0.00282147	
0.0605	-3.06454	-0.113191	-0.254073	0.00295134	-0.00295134	-0.00295134	-0.00295134	
0.061	-3.18712	-0.108739	-0.248146	0.00307838	-0.00307838	-0.00307838	-0.00307838	
0.0615	-3.30656	-0.104105	-0.241973	0.00320245	-0.00320245	-0.00320245	-0.00320245	
0.062	-3.42274	-0.0992949	-0.235562	0.00332344	-0.00332344	-0.00332344	-0.00332344	
0.0625	-3.53553	-0.0943125	-0.228917	0.00344122	-0.00344122	-0.00344122	-0.00344122	
0.063	-3.64484	-0.089163	-0.222047	0.00355568	-0.00355568	-0.00355568	-0.00355568	
0.0635	-3.75056	-0.0838516	-0.214958	0.0036667	-0.0036667	-0.0036667	-0.0036667	
0.064	-3.85257	-0.0783834	-0.207657	0.00377418	-0.00377418	-0.00377418	-0.00377418	
0.0645	-3.95078	-0.072764	-0.20015	0.00387801	-0.00387801	-0.00387801	-0.00387801	
0.065	-4.04508	-0.0669989	-0.192446	0.00397809	-0.00397809	-0.00397809	-0.00397809	
0.0655	-4.1354	-0.0610939	-0.184552	0.00407431	-0.00407431	-0.00407431	-0.00407431	
0.066	-4.22164	-0.0550547	-0.176476	0.00416658	-0.00416658	-0.00416658	-0.00416658	
0.0665	-4.30371	-0.0488875	-0.168225	0.00425482	-0.00425482	-0.00425482	-0.00425482	
0.067	-4.38153	-0.0425982	-0.159808	0.00433894	-0.00433894	-0.00433894	-0.00433894	
0.0675	-4.45503	-0.0361933	-0.151234	0.00441884	-0.00441884	-0.00441884	-0.00441884	
0.068	-4.52414	-0.029679	-0.14251	0.00449446	-0.00449446	-0.00449446	-0.00449446	
0.0685	-4.58877	-0.0230618	-0.133646	0.00456571	-0.00456571	-0.00456571	-0.00456571	
0.069	-4.64888	-0.0163482	-0.124649	0.00463253	-0.00463253	-0.00463253	-0.00463253	
0.0695	-4.7044	-0.00954495	-0.11553	0.00469486	-0.00469486	-0.00469486	-0.00469486	
0.07	-4.75528	-0.00265879	-0.106296	0.00475262	-0.00475262	-0.00475262	-0.00475262	
0.0705	-4.80147	0.00430347	-0.0969576	0.00480577	-0.00480577	-0.00480577	-0.00480577	
0.071	-4.84292	0.0113349	-0.0875233	0.00485425	-0.00485425	-0.00485425	-0.00485425	
0.0715	-4.87958	0.0184286	-0.0780025	0.00489801	-0.00489801	-0.00489801	-0.00489801	
0.072	-4.91144	0.0255774	-0.0684047	0.00493701	-0.00493701	-0.00493701	-0.00493701	
0.0725	-4.93844	0.0327743	-0.0587393	0.00497122	-0.00497122	-0.00497122	-0.00497122	
0.073	-4.96057	0.0400121	-0.0490158	0.00500059	-0.00500059	-0.00500059	-0.00500059	
0.0735	-4.97781	0.0472837	-0.0392439	0.00502509	-0.00502509	-0.00502509	-0.00502509	
0.074	-4.99013	0.0545819	-0.0294332	0.00504472	-0.00504472	-0.00504472	-0.00504472	
0.0745	-4.99753	0.0618994	-0.0195934	0.00505943	-0.00505943	-0.00505943	-0.00505943	
0.075	-5	0.0692289	-0.00973419	0.00506923	-0.00506923	-0.00506923	-0.00506923	
0.0755	-4.99753	0.0765632	0.000134715	0.0050741	-0.0050741	-0.0050741	-0.0050741	
0.076	-4.99013	0.083895	0.0100036	0.00507403	-0.00507403	-0.00507403	-0.00507403	
0.0765	-4.97781	0.091217	0.0198626	0.00506903	-0.00506903	-0.00506903	-0.00506903	
0.077	-4.96057	0.098522	0.0297021	0.0050591	-0.0050591	-0.0050591	-0.0050591	
0.0775	-4.93844	0.105803	0.0395124	0.00504424	-0.00504424	-0.00504424	-0.00504424	
0.078	-4.91144	0.113052	0.0492838	0.00502449	-0.00502449	-0.00502449	-0.00502449	
0.0785	-4.87958	0.120263	0.0590066	0.00499985	-0.00499985	-0.00499985	-0.00499985	
0.079	-4.84292	0.127427	0.0686712	0.00497034	-0.00497034	-0.00497034	-0.00497034	
0.0795	-4.80147	0.134539	0.0782682	0.00493601	-0.00493601	-0.00493601	-0.00493601	
0.08	-4.75528	0.141591	0.0877879	0.00489687	-0.00489687	-0.00489687	-0.00489687	
0.0805	-4.7044	0.148576	0.0972211	0.00485298	-0.00485298	-0.00485298	-0.00485298	
0.081	-4.64888	0.155486	0.106558	0.00480437	-0.00480437	-0.00480437	-0.00480437	
0.0815	-4.58877	0.162316	0.115791	0.00475109	-0.00475109	-0.00475109	-0.00475109	
0.082	-4.52414	0.169059	0.124909	0.00469319	-0.00469319	-0.00469319	-0.00469319	
0.0825	-4.45503	0.175707	0.133904	0.00463074	-0.00463074	-0.00463074	-0.00463074	
0.083	-4.38153	0.182255	0.142766	0.00456379	-0.00456379	-0.00456379	-0.00456379	
0.0835	-4.30371	0.188695	0.151488	0.0044924	-0.0044924	-0.0044924	-0.0044924	
0.084	-4.22164	0.195021	0.160061	0.00441666	-0.00441666	-0.00441666	-0.00441666	
0.0845	-4.1354	0.201227	0.168476	0.00433663	-0.00433663	-0.00433663	-0.00433663	
0.085	-4.04508	0.207307	0.176724	0.00425239	-0.00425239	-0.00425239	-0.00425239	
0.0855	-3.95078	0.213255	0.184798	0.00416403	-0.00416403	-0.00416403	-0.00416403	
0.086	-3.85257	0.219065	0.19269	0.00407163	-0.00407163	-0.00407163	-0.00407163	
0.0865	-3.75056	0.224731	0.200392	0.00397529	-0.00397529	-0.00397529	-0.00397529	
0.087	-3.64484	0.230247	0.207896	0.00387509	-0.00387509	-0.00387509	-0.00387509	
0.0875	-3.53553	0.235609	0.215195	0.00377114	-0.00377114	-0.00377114	-0.00377114	
0.088	-3.42274	0.24081	0.222281	0.00366355	-0.00366355	-0.00366355	-0.00366355	
0.0885	-3.30656	0.245846	0.229149	0.0035524	-0.0035524	-0.0035524	-0.0035524	
0.089	-3.18712	0.250711	0.23579	0.00343783	-0.00343783	-0.00343783	-0.00343783	
0.0895	-3.06454	0.2554	0.242199	0.00331994	-0.00331994	-0.00331994	-0.00331994	
0.09	-2.93893	0.25991	0.248368	0.00319884	-0.00319884	-0.00319884	-0.00319884	
0.0905	-2.81042	0.264235	0.254293	0.00307465	-0.00307465	-0.00307465	-0.00307465	
0.091	-2.67913	0.268372	0.259967	0.00294751	-0.00294751	-0.00294751	-0.00294751	
0.0915	-2.54521	0.272315	0.265384	0.00281752	-0.00281752	-0.00281752	-0.00281752	
0.092	-2.40877	0.276062	0.270539	0.00268483	-0.00268483	-0.00268483	-0.00268483	
0.0925	-2.26995	0.279608	0.275428	0.00254956	-0.00254956	-0.00254956	-0.00254956	
0.093	-2.1289	0.28295	0.280045	0.00241185	-0.00241185	-0.00241185	-0.00241185	
0.0935	-1.98574	0.286085	0.284385	0.00227182	-0.00227182	-0.00227182	-0.00227182	
0.094	-1.84062	0.289009	0.288445	0.00212963	-0.00212963	-0.00212963	-0.00212963	
0.0945	-1.69369	0.291719	0.292221	0.00198541	-0.00198541	-0.00198541	-0.00198541	
0.095	-1.54508	0.294214	0.295708	0.0018393	-0.0018393	-0.0018393	-0.0018393	
0.0955	-1.39496	0.296489	0.298903	0.00169144	-0.00169144	-0.00169144	-0.00169144	
0.096	-1.24345	0.298544	0.301803	0.00154199	-0.00154199	-0.00154199	-0.00154199	
0.0965	-1.09072	0.300376	0.304406	0.00139109	-0.00139109	-0.00139109	-0.00139109	
0.097	-0.936907	0.301982	0.306708	0.00123889	-0.00123889	-0.00123889	-0.00123889	
0.0975	-0.782172	0.303362	0.308708	0.00108553	-0.00108553	-0.00108553	-0.00108553	
0.098	-0.626666	0.304515	0.310403	0.000931181	-0.000931181	-0.000931181	-0.000931181	
0.0985	-0.470542	0.305438	0.311792	0.000775979	-0.000775979	-0.000775979	-0.000775979	
0.099	-0.313953	0.306131	0.312873	0.000620084	-0.000620084	-0.000620084	-0.000620084	
0.0995	-0.157054	0.306594	0.313645	0.000463647	-0.000463647	-0.000463647	-0.000463647	
0.1	2.09798e-14	0.306825	0.314108	0.000306825	-0.000306825	-0.000306825	-0.000306825	
0.1005	0.157054	0.306824	0.314261	0.000149771	-0.000149771	-0.000149771	-0.000149771	
0.101	0.313953	0.306593	0.314104	-7.36008e-06	7.36008e-06	7.36008e-06	7.36008e-06	
0.1015	0.470542	0.306129	0.313637	-0.000164412	0.000164412	0.000164412	0.000164412	
0.102	0.626666	0.305435	0.312861	-0.000321231	0.000321231	0.000321231	0.000321231	
0.1025	0.782172	0.304511	0.311776	-0.000477662	0.000477662	0.000477662	0.000477662	
0.103	0.936907	0.303357	0.310383	-0.00063355	0.00063355	0.00063355	0.00063355	
0.1035	1.09072	0.301975	0.308685	-0.000788741	0.000788741	0.000788741	0.000788741	
0.104	1.24345	0.300366	0.306681	-0.000943084	0.000943084	0.000943084	0.000943084	
0.1045	1.39496	0.298531	0.304375	-0.00109642	0.00109642	0.00109642	0.00109642	
0.105	1.54508	0.296473	0.301769	-0.00124861	0.00124861	0.00124861	0.00124861	
0.1055	1.69369	0.294193	0.298865	-0.0013995	0.0013995	0.0013995	0.0013995	
0.106	1.84062	0.291694	0.295666	-0.00154893	0.00154893	0.00154893	0.00154893	
0.1065	1.98574	0.288978	0.292175	-0.00169676	0.00169676	0.00169676	0.00169676	
0.107	2.1289	0.286047	0.288396	-0.00184285	0.00184285	0.00184285	0.00184285	
0.1075	2.26995	0.282905	0.284333	-0.00198705	0.00198705	0.00198705	0.00198705	
0.108	2.40877	0.279555	0.279989	-0.00212921	0.00212921	0.00212921	0.00212921	
0.1085	2.54521	0.275999	0.275368	-0.00226921	0.00226921	0.00226921	0.00226921	
0.109	2.67913	0.272242	0.270477	-0.00240689	0.00240689	0.00240689	0.00240689	
0.1095	2.81042	0.268287	0.265318	-0.00254213	0.00254213	0.00254213	0.00254213	
0.11	2.93893	0.264137	0.259897	-0.00267479	0.00267479	0.00267479	0.00267479	
0.1105	3.06454	0.259798	0.25422	-0.00280474	0.00280474	0.00280474	0.00280474	
0.111	3.18712	0.255272	0.248292	-0.00293185	0.00293185	0.00293185	0.00293185	
0.1115	3.30656	0.250565	0.24212	-0.00305599	0.00305599	0.00305599	0.00305599	
0.112	3.42274	0.245682	0.235708	-0.00317705	0.00317705	0.00317705	0.00317705	
0.1125	3.53553	0.240626	0.229064	-0.00329491	0.00329491	0.00329491	0.00329491	
0.113	3.64484	0.235403	0.222194	-0.00340944	0.00340944	0.00340944	0.00340944	
0.1135	3.75056	0.230019	0.215104	-0.00352054	0.00352054	0.00352054	0.00352054	
0.114	3.85257	0.224477	0.207803	-0.00362809	0.00362809	0.00362809	0.00362809	
0.1145	3.95078	0.218785	0.200296	-0.00373199	0.00373199	0.00373199	0.00373199	
0.115	4.04508	0.212947	0.192592	-0.00383214	0.00383214	0.00383214	0.00383214	
0.1155	4.1354	0.206969	0.184698	-0.00392843	0.00392843	0.00392843	0.00392843	
0.116	4.22164	0.200856	0.176621	-0.00402078	0.00402078	0.00402078	0.00402078	
0.1165	4.30371	0.194616	0.168371	-0.00410909	0.00410909	0.00410909	0.00410909	
0.117	4.38153	0.188254	0.159954	-0.00419328	0.00419328	0.00419328	0.00419328	
0.1175	4.45503	0.181776	0.15138	-0.00427326	0.00427326	0.00427326	0.00427326	
0.118	4.52414	0.175189	0.142656	-0.00434895	0.00434895	0.00434895	0.00434895	
0.1185	4.58877	0.168499	0.133791	-0.00442027	0.00442027	0.00442027	0.00442027	
0.119	4.64888	0.161713	0.124795	-0.00448717	0.00448717	0.00448717	0.00448717	
0.1195	4.7044	0.154837	0.115675	-0.00454957	0.00454957	0.00454957	0.00454957	
0.12	4.75528	0.147878	0.106442	-0.0046074	0.0046074	0.0046074	0.0046074	
0.1205	4.80147	0.140843	0.0971029	-0.00466063	0.00466063	0.00466063	0.00466063	
0.121	4.84292	0.133739	0.0876685	-0.00470918	0.00470918	0.00470918	0.00470918	
0.1215	4.87958	0.126572	0.0781477	-0.00475301	0.00475301	0.00475301	0.00475301	
0.122	4.91144	0.119351	0.0685498	-0.00479209	0.00479209	0.00479209	0.00479209	
0.1225	4.93844	0.112082	0.0588843	-0.00482636	0.00482636	0.00482636	0.00482636	
0.123	4.96057	0.104771	0.0491608	-0.0048558	0.0048558	0.0048558	0.0048558	
