Time	V(N001)	V(N002)	V(N003)	I(V1)	I(R1)	I(C1)	I(C2)	
0	0	-1.39058e-309	-6.95289e-310	-1.39058e-309	-1.39058e-309	-1.39058e-309	-1.39058e-309	
0.002	0.626666	-1.38502e-309	-6.92508e-310	-0.626666	-0.626666	-0.626666	-0.626666	
0.004	1.24345	0.00250666	0.00125333	-1.24094	-1.24094	-1.24094	-1.24094	
0.006	1.84062	0.00747044	0.00373522	-1.83315	-1.83315	-1.83315	-1.83315	
0.008	2.40877	0.014803	0.00740152	-2.39397	-2.39397	-2.39397	-2.39397	
0.01	2.93893	0.0243789	0.0121895	-2.91455	-2.91455	-2.91455	-2.91455	
0.012	3.42274	0.0360371	0.0180185	-3.3867	-3.3867	-3.3867	-3.3867	
0.014	3.85257	0.0495839	0.0247919	-3.80298	-3.80298	-3.80298	-3.80298	
0.016	4.22164	0.0647958	0.0323979	-4.15684	-4.15684	-4.15684	-4.15684	
0.018	4.52414	0.0814232	0.0407116	-4.44271	-4.44271	-4.44271	-4.44271	
0.02	4.75528	0.099194	0.049597	-4.65609	-4.65609	-4.65609	-4.65609	
0.022	4.91144	0.117818	0.0589092	-4.79362	-4.79362	-4.79362	-4.79362	
0.024	4.99013	0.136993	0.0684964	-4.85314	-4.85314	-4.85314	-4.85314	
0.026	4.99013	0.156405	0.0782027	-4.83373	-4.83373	-4.83373	-4.83373	
0.028	4.91144	0.17574	0.0878702	-4.7357	-4.7357	-4.7357	-4.7357	
0.03	4.75528	0.194683	0.0973416	-4.5606	-4.5606	-4.5606	-4.5606	
0.032	4.52414	0.212926	0.106463	-4.31121	-4.31121	-4.31121	-4.31121	
0.034	4.22164	0.23017	0.115085	-3.99147	-3.99147	-3.99147	-3.99147	
0.036	3.85257	0.246136	0.123068	-3.60643	-3.60643	-3.60643	-3.60643	
0.038	3.42274	0.260562	0.130281	-3.16217	-3.16217	-3.16217	-3.16217	
0.04	2.93893	0.273211	0.136605	-2.66572	-2.66572	-2.66572	-2.66572	
0.042	2.40877	0.283874	0.141937	-2.12489	-2.12489	-2.12489	-2.12489	
0.044	1.84062	0.292373	0.146187	-1.54825	-1.54825	-1.54825	-1.54825	
0.046	1.24345	0.298566	0.149283	-0.944883	-0.944883	-0.944883	-0.944883	
0.048	0.626666	0.302346	0.151173	-0.324321	-0.324321	-0.324321	-0.324321	
0.05	-8.26946e-15	0.303643	0.151821	0.303643	0.303643	0.303643	0.303643	
0.052	-0.626666	0.302428	0.151214	0.929095	0.929095	0.929095	0.929095	
0.054	-1.24345	0.298712	0.149356	1.54216	1.54216	1.54216	1.54216	
0.056	-1.84062	0.292543	0.146272	2.13317	2.13317	2.13317	2.13317	
0.058	-2.40877	0.284011	0.142005	2.69278	2.69278	2.69278	2.69278	
0.06	-2.93893	0.27324	0.13662	3.21217	3.21217	3.21217	3.21217	
0.062	-3.42274	0.260391	0.130195	3.68313	3.68313	3.68313	3.68313	
0.064	-3.85257	0.245658	0.122829	4.09822	4.09822	4.09822	4.09822	
0.066	-4.22164	0.229265	0.114633	4.45091	4.45091	4.45091	4.45091	
0.068	-4.52414	0.211462	0.105731	4.7356	4.7356	4.7356	4.7356	
0.07	-4.75528	0.192519	0.0962597	4.9478	4.9478	4.9478	4.9478	
0.072	-4.91144	0.172728	0.0863641	5.08416	5.08416	5.08416	5.08416	
0.074	-4.99013	0.152392	0.0761958	5.14253	5.14253	5.14253	5.14253	
0.076	-4.99013	0.131821	0.0659107	5.12196	5.12196	5.12196	5.12196	
0.078	-4.91144	0.111334	0.0556668	5.02277	5.02277	5.02277	5.02277	
0.08	-4.75528	0.0912426	0.0456213	4.84653	4.84653	4.84653	4.84653	
0.082	-4.52414	0.0718565	0.0359282	4.59599	4.59599	4.59599	4.59599	
0.084	-4.22164	0.0534725	0.0267363	4.27511	4.27511	4.27511	4.27511	
0.086	-3.85257	0.0363721	0.018186	3.88894	3.88894	3.88894	3.88894	
0.088	-3.42274	0.0208163	0.0104082	3.44355	3.44355	3.44355	3.44355	
0.09	-2.93893	0.00704212	0.00352106	2.94597	2.94597	2.94597	2.94597	
0.092	-2.40877	-0.00474176	-0.00237088	2.40403	2.40403	2.40403	2.40403	
0.094	-1.84062	-0.0143579	-0.00717893	1.82626	1.82626	1.82626	1.82626	
0.096	-1.24345	-0.0216629	-0.0108315	1.22179	1.22179	1.22179	1.22179	
0.098	-0.626666	-0.0265501	-0.013275	0.600116	0.600116	0.600116	0.600116	
0.1	2.09798e-14	-0.0289505	-0.0144753	-0.0289505	-0.0289505	-0.0289505	-0.0289505	
0.102	0.626666	-0.0288347	-0.0144174	-0.655501	-0.655501	-0.655501	-0.655501	
0.104	1.24345	-0.0262127	-0.0131064	-1.26966	-1.26966	-1.26966	-1.26966	
0.106	1.84062	-0.0211341	-0.010567	-1.86176	-1.86176	-1.86176	-1.86176	
0.108	2.40877	-0.0136871	-0.00684353	-2.42246	-2.42246	-2.42246	-2.42246	
0.11	2.93893	-0.00399723	-0.00199862	-2.94292	-2.94292	-2.94292	-2.94292	
0.112	3.42274	0.00777446	0.00388723	-3.41496	-3.41496	-3.41496	-3.41496	
0.114	3.85257	0.0214343	0.0107172	-3.83113	-3.83113	-3.83113	-3.83113	
0.116	4.22164	0.0367588	0.0183794	-4.18488	-4.18488	-4.18488	-4.18488	
0.118	4.52414	0.0534984	0.0267492	-4.47064	-4.47064	-4.47064	-4.47064	
0.12	4.75528	0.0713809	0.0356905	-4.6839	-4.6839	-4.6839	-4.6839	
0.122	4.91144	0.0901165	0.0450583	-4.82132	-4.82132	-4.82132	-4.82132	
0.124	4.99013	0.109402	0.0547009	-4.88073	-4.88073	-4.88073	-4.88073	
0.126	4.99013	0.128925	0.0644624	-4.86121	-4.86121	-4.86121	-4.86121	
0.128	4.91144	0.14837	0.0741848	-4.76307	-4.76307	-4.76307	-4.76307	
0.13	4.75528	0.167422	0.0837109	-4.58786	-4.58786	-4.58786	-4.58786	
0.132	4.52414	0.185773	0.0928866	-4.33836	-4.33836	-4.33836	-4.33836	
0.134	4.22164	0.203127	0.101563	-4.01851	-4.01851	-4.01851	-4.01851	
0.136	3.85257	0.219201	0.1096	-3.63337	-3.63337	-3.63337	-3.63337	
0.138	3.42274	0.233734	0.116867	-3.189	-3.189	-3.189	-3.189	
0.14	2.93893	0.24649	0.123245	-2.69244	-2.69244	-2.69244	-2.69244	
0.142	2.40877	0.25726	0.12863	-2.15151	-2.15151	-2.15151	-2.15151	
0.144	1.84062	0.265866	0.132933	-1.57476	-1.57476	-1.57476	-1.57476	
0.146	1.24345	0.272165	0.136083	-0.971284	-0.971284	-0.971284	-0.971284	
0.148	0.626666	0.27605	0.138025	-0.350616	-0.350616	-0.350616	-0.350616	
0.15	-3.36902e-14	0.277453	0.138726	0.277453	0.277453	0.277453	0.277453	
0.152	-0.626666	0.276343	0.138171	0.903009	0.903009	0.903009	0.903009	
0.154	-1.24345	0.272731	0.136365	1.51618	1.51618	1.51618	1.51618	
0.156	-1.84062	0.266666	0.133333	2.10729	2.10729	2.10729	2.10729	
0.158	-2.40877	0.258237	0.129118	2.66701	2.66701	2.66701	2.66701	
0.16	-2.93893	0.247569	0.123784	3.1865	3.1865	3.1865	3.1865	
0.162	-3.42274	0.234823	0.117411	3.65756	3.65756	3.65756	3.65756	
0.164	-3.85257	0.220193	0.110096	4.07276	4.07276	4.07276	4.07276	
0.166	-4.22164	0.203902	0.101951	4.42554	4.42554	4.42554	4.42554	
0.168	-4.52414	0.186199	0.0930997	4.71033	4.71033	4.71033	4.71033	
0.17	-4.75528	0.167358	0.0836791	4.92264	4.92264	4.92264	4.92264	
0.172	-4.91144	0.147668	0.0738338	5.0591	5.0591	5.0591	5.0591	
0.174	-4.99013	0.127431	0.0637156	5.11756	5.11756	5.11756	5.11756	
0.176	-4.99013	0.106961	0.0534805	5.09709	5.09709	5.09709	5.09709	
0.178	-4.91144	0.0865725	0.0432863	4.99801	4.99801	4.99801	4.99801	
0.18	-4.75528	0.0665805	0.0332902	4.82186	4.82186	4.82186	4.82186	
0.182	-4.52414	0.047293	0.0236465	4.57143	4.57143	4.57143	4.57143	
0.184	-4.22164	0.0290073	0.0145037	4.25065	4.25065	4.25065	4.25065	
0.186	-3.85257	0.0120047	0.00600237	3.86457	3.86457	3.86457	3.86457	
0.188	-3.42274	-0.00345355	-0.00172677	3.41928	3.41928	3.41928	3.41928	
0.19	-2.93893	-0.0171307	-0.00856534	2.9218	2.9218	2.9218	2.9218	
0.192	-2.40877	-0.0288179	-0.0144089	2.37995	2.37995	2.37995	2.37995	
0.194	-1.84062	-0.0383377	-0.0191688	1.80229	1.80229	1.80229	1.80229	
0.196	-1.24345	-0.0455468	-0.0227734	1.1979	1.1979	1.1979	1.1979	
0.198	-0.626666	-0.0503384	-0.0251692	0.576328	0.576328	0.576328	0.576328	
0.2	4.19596e-14	-0.0526437	-0.0263219	-0.0526437	-0.0526437	-0.0526437	-0.0526437	
0.202	0.626666	-0.0524331	-0.0262166	-0.679099	-0.679099	-0.679099	-0.679099	
0.204	1.24345	-0.0497168	-0.0248584	-1.29317	-1.29317	-1.29317	-1.29317	
0.206	1.84062	-0.0445441	-0.022272	-1.88517	-1.88517	-1.88517	-1.88517	
0.208	2.40877	-0.0370034	-0.0185017	-2.44577	-2.44577	-2.44577	-2.44577	
0.21	2.93893	-0.0272203	-0.0136102	-2.96615	-2.96615	-2.96615	-2.96615	
0.212	3.42274	-0.0153557	-0.00767787	-3.43809	-3.43809	-3.43809	-3.43809	
0.214	3.85257	-0.00160338	-0.00080169	-3.85417	-3.85417	-3.85417	-3.85417	
0.216	4.22164	0.0138133	0.00690665	-4.20783	-4.20783	-4.20783	-4.20783	
0.218	4.52414	0.0306446	0.0153223	-4.49349	-4.49349	-4.49349	-4.49349	
0.22	4.75528	0.0486186	0.0243093	-4.70666	-4.70666	-4.70666	-4.70666	
0.222	4.91144	0.0674452	0.0337226	-4.84399	-4.84399	-4.84399	-4.84399	
0.224	4.99013	0.0868212	0.0434106	-4.90331	-4.90331	-4.90331	-4.90331	
0.226	4.99013	0.106434	0.0532172	-4.8837	-4.8837	-4.8837	-4.8837	
0.228	4.91144	0.125969	0.0629846	-4.78547	-4.78547	-4.78547	-4.78547	
0.23	4.75528	0.145111	0.0725556	-4.61017	-4.61017	-4.61017	-4.61017	
0.232	4.52414	0.163552	0.0817759	-4.36058	-4.36058	-4.36058	-4.36058	
0.234	4.22164	0.180994	0.0904971	-4.04065	-4.04065	-4.04065	-4.04065	
0.236	3.85257	0.197157	0.0985784	-3.65541	-3.65541	-3.65541	-3.65541	
0.238	3.42274	0.211778	0.105889	-3.21096	-3.21096	-3.21096	-3.21096	
0.24	2.93893	0.224622	0.112311	-2.7143	-2.7143	-2.7143	-2.7143	
0.242	2.40877	0.235479	0.11774	-2.17329	-2.17329	-2.17329	-2.17329	
0.244	1.84062	0.244173	0.122086	-1.59645	-1.59645	-1.59645	-1.59645	
0.246	1.24345	0.250558	0.125279	-0.992891	-0.992891	-0.992891	-0.992891	
0.248	0.626666	0.25453	0.127265	-0.372136	-0.372136	-0.372136	-0.372136	
0.25	-5.02291e-14	0.256018	0.128009	0.256018	0.256018	0.256018	0.256018	
0.252	-0.626666	0.254994	0.127497	0.881661	0.881661	0.881661	0.881661	
0.254	-1.24345	0.251468	0.125734	1.49492	1.49492	1.49492	1.49492	
0.256	-1.84062	0.245488	0.122744	2.08611	2.08611	2.08611	2.08611	
0.258	-2.40877	0.237144	0.118572	2.64591	2.64591	2.64591	2.64591	
0.26	-2.93893	0.22656	0.11328	3.16549	3.16549	3.16549	3.16549	
0.262	-3.42274	0.213898	0.106949	3.63663	3.63663	3.63663	3.63663	
0.264	-3.85257	0.199351	0.0996757	4.05192	4.05192	4.05192	4.05192	
0.266	-4.22164	0.183144	0.0915719	4.40478	4.40478	4.40478	4.40478	
0.268	-4.52414	0.165525	0.0827623	4.68966	4.68966	4.68966	4.68966	
0.27	-4.75528	0.146766	0.073383	4.90205	4.90205	4.90205	4.90205	
0.272	-4.91144	0.127158	0.0635789	5.03859	5.03859	5.03859	5.03859	
0.274	-4.99013	0.107003	0.0535017	5.09714	5.09714	5.09714	5.09714	
0.276	-4.99013	0.0866149	0.0433075	5.07675	5.07675	5.07675	5.07675	
0.278	-4.91144	0.0663079	0.033154	4.97774	4.97774	4.97774	4.97774	
0.28	-4.75528	0.046397	0.0231985	4.80168	4.80168	4.80168	4.80168	
0.282	-4.52414	0.0271902	0.0135951	4.55133	4.55133	4.55133	4.55133	
0.284	-4.22164	0.00898494	0.00449247	4.23062	4.23062	4.23062	4.23062	
0.286	-3.85257	-0.00793756	-0.00396878	3.84463	3.84463	3.84463	3.84463	
0.288	-3.42274	-0.0233161	-0.011658	3.39942	3.39942	3.39942	3.39942	
0.29	-2.93893	-0.0369137	-0.0184569	2.90201	2.90201	2.90201	2.90201	
0.292	-2.40877	-0.0485218	-0.0242609	2.36025	2.36025	2.36025	2.36025	
0.294	-1.84062	-0.0579628	-0.0289814	1.78266	1.78266	1.78266	1.78266	
0.296	-1.24345	-0.0650934	-0.0325467	1.17836	1.17836	1.17836	1.17836	
0.298	-0.626666	-0.0698068	-0.0349034	0.556859	0.556859	0.556859	0.556859	
0.3	6.73803e-14	-0.0720343	-0.0360171	-0.0720343	-0.0720343	-0.0720343	-0.0720343	
0.302	0.626666	-0.0717461	-0.0358731	-0.698412	-0.698412	-0.698412	-0.698412	
0.304	1.24345	-0.0689525	-0.0344762	-1.3124	-1.3124	-1.3124	-1.3124	
0.306	1.84062	-0.0637029	-0.0318514	-1.90433	-1.90433	-1.90433	-1.90433	
0.308	2.40877	-0.0560856	-0.0280428	-2.46485	-2.46485	-2.46485	-2.46485	
0.31	2.93893	-0.0462262	-0.0231131	-2.98515	-2.98515	-2.98515	-2.98515	
0.312	3.42274	-0.0342856	-0.0171428	-3.45702	-3.45702	-3.45702	-3.45702	
0.314	3.85257	-0.0204575	-0.0102287	-3.87302	-3.87302	-3.87302	-3.87302	
0.316	4.22164	-0.00496538	-0.00248269	-4.22661	-4.22661	-4.22661	-4.22661	
0.318	4.52414	0.011941	0.00597052	-4.51219	-4.51219	-4.51219	-4.51219	
0.32	4.75528	0.0299898	0.0149949	-4.72529	-4.72529	-4.72529	-4.72529	
0.322	4.91144	0.048891	0.0244455	-4.86255	-4.86255	-4.86255	-4.86255	
0.324	4.99013	0.0683412	0.0341706	-4.92179	-4.92179	-4.92179	-4.92179	
0.326	4.99013	0.0880283	0.0440142	-4.90211	-4.90211	-4.90211	-4.90211	
0.328	4.91144	0.107637	0.0538184	-4.8038	-4.8038	-4.8038	-4.8038	
0.33	4.75528	0.126852	0.063426	-4.62843	-4.62843	-4.62843	-4.62843	
0.332	4.52414	0.145366	0.0726828	-4.37877	-4.37877	-4.37877	-4.37877	
0.334	4.22164	0.162881	0.0814404	-4.05876	-4.05876	-4.05876	-4.05876	
0.336	3.85257	0.179116	0.0895579	-3.67345	-3.67345	-3.67345	-3.67345	
0.338	3.42274	0.19381	0.0969048	-3.22893	-3.22893	-3.22893	-3.22893	
0.34	2.93893	0.206725	0.103363	-2.7322	-2.7322	-2.7322	-2.7322	
0.342	2.40877	0.217654	0.108827	-2.19111	-2.19111	-2.19111	-2.19111	
0.344	1.84062	0.226419	0.113209	-1.6142	-1.6142	-1.6142	-1.6142	
0.346	1.24345	0.232875	0.116438	-1.01057	-1.01057	-1.01057	-1.01057	
0.348	0.626666	0.236918	0.118459	-0.389748	-0.389748	-0.389748	-0.389748	
0.35	-8.45316e-14	0.238477	0.119238	0.238477	0.238477	0.238477	0.238477	
0.352	-0.626666	0.237523	0.118761	0.864189	0.864189	0.864189	0.864189	
0.354	-1.24345	0.234066	0.117033	1.47752	1.47752	1.47752	1.47752	
0.356	-1.84062	0.228156	0.114078	2.06878	2.06878	2.06878	2.06878	
0.358	-2.40877	0.219881	0.10994	2.62865	2.62865	2.62865	2.62865	
0.36	-2.93893	0.209366	0.104683	3.14829	3.14829	3.14829	3.14829	
0.362	-3.42274	0.196773	0.0983865	3.61951	3.61951	3.61951	3.61951	
0.364	-3.85257	0.182295	0.0911475	4.03486	4.03486	4.03486	4.03486	
0.366	-4.22164	0.166156	0.0830778	4.3878	4.3878	4.3878	4.3878	
0.368	-4.52414	0.148604	0.0743022	4.67274	4.67274	4.67274	4.67274	
0.37	-4.75528	0.129913	0.0649567	4.8852	4.8852	4.8852	4.8852	
0.372	-4.91144	0.110373	0.0551863	5.02181	5.02181	5.02181	5.02181	
0.374	-4.99013	0.0902854	0.0451427	5.08042	5.08042	5.08042	5.08042	
0.376	-4.99013	0.0699637	0.0349819	5.0601	5.0601	5.0601	5.0601	
0.378	-4.91144	0.0497234	0.0248617	4.96116	4.96116	4.96116	4.96116	
0.38	-4.75528	0.0298787	0.0149394	4.78516	4.78516	4.78516	4.78516	
0.382	-4.52414	0.0107381	0.00536903	4.53487	4.53487	4.53487	4.53487	
0.384	-4.22164	-0.00740142	-0.00370071	4.21424	4.21424	4.21424	4.21424	
0.386	-3.85257	-0.0242584	-0.0121292	3.82831	3.82831	3.82831	3.82831	
0.388	-3.42274	-0.0395716	-0.0197858	3.38316	3.38316	3.38316	3.38316	
0.39	-2.93893	-0.0531043	-0.0265521	2.88582	2.88582	2.88582	2.88582	
0.392	-2.40877	-0.0646476	-0.0323238	2.34412	2.34412	2.34412	2.34412	
0.394	-1.84062	-0.074024	-0.037012	1.7666	1.7666	1.7666	1.7666	
0.396	-1.24345	-0.0810904	-0.0405452	1.16236	1.16236	1.16236	1.16236	
0.398	-0.626666	-0.0857399	-0.0428699	0.540926	0.540926	0.540926	0.540926	
0.4	8.39193e-14	-0.0879036	-0.0439518	-0.0879036	-0.0879036	-0.0879036	-0.0879036	
0.402	0.626666	-0.087552	-0.043776	-0.714218	-0.714218	-0.714218	-0.714218	
0.404	1.24345	-0.0846951	-0.0423475	-1.32814	-1.32814	-1.32814	-1.32814	
0.406	1.84062	-0.0793825	-0.0396913	-1.92001	-1.92001	-1.92001	-1.92001	
0.408	2.40877	-0.0717025	-0.0358512	-2.48047	-2.48047	-2.48047	-2.48047	
0.41	2.93893	-0.0617806	-0.0308903	-3.00071	-3.00071	-3.00071	-3.00071	
0.412	3.42274	-0.0497778	-0.0248889	-3.47251	-3.47251	-3.47251	-3.47251	
0.414	3.85257	-0.0358877	-0.0179439	-3.88845	-3.88845	-3.88845	-3.88845	
0.416	4.22164	-0.0203339	-0.010167	-4.24197	-4.24197	-4.24197	-4.24197	
0.418	4.52414	-0.00336601	-0.00168301	-4.5275	-4.5275	-4.5275	-4.5275	
0.42	4.75528	0.014744	0.007372	-4.74054	-4.74054	-4.74054	-4.74054	
0.422	4.91144	0.0337061	0.0168531	-4.87773	-4.87773	-4.87773	-4.87773	
0.424	4.99013	0.0532171	0.0266085	-4.93692	-4.93692	-4.93692	-4.93692	
0.426	4.99013	0.0729647	0.0364824	-4.91717	-4.91717	-4.91717	-4.91717	
0.428	4.91144	0.0926334	0.0463167	-4.8188	-4.8188	-4.8188	-4.8188	
0.43	4.75528	0.111909	0.0559543	-4.64337	-4.64337	-4.64337	-4.64337	
0.432	4.52414	0.130482	0.0652411	-4.39365	-4.39365	-4.39365	-4.39365	
0.434	4.22164	0.148057	0.0740284	-4.07358	-4.07358	-4.07358	-4.07358	
0.436	3.85257	0.164351	0.0821755	-3.68822	-3.68822	-3.68822	-3.68822	
0.438	3.42274	0.179104	0.089552	-3.24363	-3.24363	-3.24363	-3.24363	
0.44	2.93893	0.192078	0.0960392	-2.74685	-2.74685	-2.74685	-2.74685	
0.442	2.40877	0.203066	0.101533	-2.2057	-2.2057	-2.2057	-2.2057	
0.444	1.84062	0.211889	0.105944	-1.62873	-1.62873	-1.62873	-1.62873	
0.446	1.24345	0.218404	0.109202	-1.02505	-1.02505	-1.02505	-1.02505	
0.448	0.626666	0.222504	0.111252	-0.404162	-0.404162	-0.404162	-0.404162	
0.45	-1.0107e-13	0.22412	0.11206	0.22412	0.22412	0.22412	0.22412	
0.452	-0.626666	0.223224	0.111612	0.84989	0.84989	0.84989	0.84989	
0.454	-1.24345	0.219824	0.109912	1.46327	1.46327	1.46327	1.46327	
0.456	-1.84062	0.213971	0.106986	2.05459	2.05459	2.05459	2.05459	
0.458	-2.40877	0.205753	0.102876	2.61452	2.61452	2.61452	2.61452	
0.46	-2.93893	0.195295	0.0976474	3.13422	3.13422	3.13422	3.13422	
0.462	-3.42274	0.182758	0.091379	3.60549	3.60549	3.60549	3.60549	
0.464	-3.85257	0.168336	0.084168	4.0209	4.0209	4.0209	4.0209	
0.466	-4.22164	0.152252	0.0761262	4.37389	4.37389	4.37389	4.37389	
0.468	-4.52414	0.134757	0.0673784	4.65889	4.65889	4.65889	4.65889	
0.47	-4.75528	0.116121	0.0580606	4.8714	4.8714	4.8714	4.8714	
0.472	-4.91144	0.0966356	0.0483178	5.00807	5.00807	5.00807	5.00807	
0.474	-4.99013	0.0766033	0.0383017	5.06674	5.06674	5.06674	5.06674	
0.476	-4.99013	0.0563364	0.0281682	5.04647	5.04647	5.04647	5.04647	
0.478	-4.91144	0.0361505	0.0180752	4.94759	4.94759	4.94759	4.94759	
0.48	-4.75528	0.0163601	0.00818007	4.77164	4.77164	4.77164	4.77164	
0.482	-4.52414	-0.00272643	-0.00136321	4.52141	4.52141	4.52141	4.52141	
0.484	-4.22164	-0.0208121	-0.010406	4.20083	4.20083	4.20083	4.20083	
0.486	-3.85257	-0.0376154	-0.0188077	3.81495	3.81495	3.81495	3.81495	
0.488	-3.42274	-0.0528752	-0.0264376	3.36986	3.36986	3.36986	3.36986	
0.49	-2.93893	-0.0663546	-0.0331773	2.87257	2.87257	2.87257	2.87257	
0.492	-2.40877	-0.0778449	-0.0389225	2.33092	2.33092	2.33092	2.33092	
0.494	-1.84062	-0.0871686	-0.0435843	1.75345	1.75345	1.75345	1.75345	
0.496	-1.24345	-0.0941824	-0.0470912	1.14927	1.14927	1.14927	1.14927	
0.498	-0.626666	-0.0987795	-0.0493897	0.527887	0.527887	0.527887	0.527887	
0.5	1.00458e-13	-0.100891	-0.0504455	-0.100891	-0.100891	-0.100891	-0.100891	
0.502	0.626666	-0.100487	-0.0502437	-0.727154	-0.727154	-0.727154	-0.727154	
0.504	1.24345	-0.0975789	-0.0487894	-1.34103	-1.34103	-1.34103	-1.34103	
0.506	1.84062	-0.0922147	-0.0461074	-1.93284	-1.93284	-1.93284	-1.93284	
0.508	2.40877	-0.0844834	-0.0422417	-2.49325	-2.49325	-2.49325	-2.49325	
0.51	2.93893	-0.0745104	-0.0372552	-3.01344	-3.01344	-3.01344	-3.01344	
0.512	3.42274	-0.0624566	-0.0312283	-3.48519	-3.48519	-3.48519	-3.48519	
0.514	3.85257	-0.0485159	-0.0242579	-3.90108	-3.90108	-3.90108	-3.90108	
0.516	4.22164	-0.0329115	-0.0164558	-4.25455	-4.25455	-4.25455	-4.25455	
0.518	4.52414	-0.0158933	-0.00794667	-4.54003	-4.54003	-4.54003	-4.54003	
0.52	4.75528	0.00226678	0.00113339	-4.75302	-4.75302	-4.75302	-4.75302	
0.522	4.91144	0.0212788	0.0106394	-4.89016	-4.89016	-4.89016	-4.89016	
0.524	4.99013	0.0408395	0.0204197	-4.94929	-4.94929	-4.94929	-4.94929	
0.526	4.99013	0.0606366	0.0303183	-4.9295	-4.9295	-4.9295	-4.9295	
0.528	4.91144	0.0803546	0.0401773	-4.83108	-4.83108	-4.83108	-4.83108	
0.53	4.75528	0.099679	0.0498395	-4.6556	-4.6556	-4.6556	-4.6556	
0.532	4.52414	0.118301	0.0591507	-4.40583	-4.40583	-4.40583	-4.40583	
0.534	4.22164	0.135925	0.0679624	-4.08571	-4.08571	-4.08571	-4.08571	
0.536	3.85257	0.152268	0.0761338	-3.7003	-3.7003	-3.7003	-3.7003	
0.538	3.42274	0.167069	0.0835344	-3.25567	-3.25567	-3.25567	-3.25567	
0.54	2.93893	0.180091	0.0900457	-2.75883	-2.75883	-2.75883	-2.75883	
0.542	2.40877	0.191127	0.0955634	-2.21764	-2.21764	-2.21764	-2.21764	
0.544	1.84062	0.199997	0.0999987	-1.64063	-1.64063	-1.64063	-1.64063	
0.546	1.24345	0.20656	0.10328	-1.03689	-1.03689	-1.03689	-1.03689	
0.548	0.626666	0.210707	0.105354	-0.415959	-0.415959	-0.415959	-0.415959	
0.55	-1.17609e-13	0.212371	0.106186	0.212371	0.212371	0.212371	0.212371	
0.552	-0.626666	0.211522	0.105761	0.838188	0.838188	0.838188	0.838188	
0.554	-1.24345	0.208169	0.104084	1.45162	1.45162	1.45162	1.45162	
0.556	-1.84062	0.202363	0.101181	2.04299	2.04299	2.04299	2.04299	
0.558	-2.40877	0.194191	0.0970953	2.60296	2.60296	2.60296	2.60296	
0.56	-2.93893	0.183779	0.0918894	3.12271	3.12271	3.12271	3.12271	
0.562	-3.42274	0.171288	0.085644	3.59402	3.59402	3.59402	3.59402	
0.564	-3.85257	0.156912	0.0784559	4.00948	4.00948	4.00948	4.00948	
0.566	-4.22164	0.140874	0.070437	4.36251	4.36251	4.36251	4.36251	
0.568	-4.52414	0.123424	0.0617119	4.64756	4.64756	4.64756	4.64756	
0.57	-4.75528	0.104834	0.0524168	4.86012	4.86012	4.86012	4.86012	
