Time	V(N001)	V(N002)	I(V1)	I(R1)	I(C1)	
0	0	-6.95319e-310	-6.95319e-313	-6.95319e-313	-6.95319e-313	
0.001	0.313953	-6.94624e-310	-0.000313953	-0.000313953	-0.000313953	
0.002	0.626666	0.000313953	-0.000626352	-0.000626352	-0.000626352	
0.003	0.936907	0.000940305	-0.000935966	-0.000935966	-0.000935966	
0.004	1.24345	0.00187627	-0.00124157	-0.00124157	-0.00124157	
0.005	1.54508	0.00311784	-0.00154197	-0.00154197	-0.00154197	
0.006	1.84062	0.00465981	-0.00183596	-0.00183596	-0.00183596	
0.007	2.1289	0.00649577	-0.0021224	-0.0021224	-0.0021224	
0.008	2.40877	0.00861818	-0.00240015	-0.00240015	-0.00240015	
0.009	2.67913	0.0110183	-0.00266812	-0.00266812	-0.00266812	
0.01	2.93893	0.0136864	-0.00292524	-0.00292524	-0.00292524	
0.011	3.18712	0.0166117	-0.00317051	-0.00317051	-0.00317051	
0.012	3.42274	0.0197822	-0.00340295	-0.00340295	-0.00340295	
0.013	3.64484	0.0231851	-0.00362166	-0.00362166	-0.00362166	
0.014	3.85257	0.0268068	-0.00382576	-0.00382576	-0.00382576	
0.015	4.04508	0.0306326	-0.00401445	-0.00401445	-0.00401445	
0.016	4.22164	0.034647	-0.00418699	-0.00418699	-0.00418699	
0.017	4.38153	0.038834	-0.0043427	-0.0043427	-0.0043427	
0.018	4.52414	0.0431767	-0.00448096	-0.00448096	-0.00448096	
0.019	4.64888	0.0476577	-0.00460122	-0.00460122	-0.00460122	
0.02	4.75528	0.0522589	-0.00470302	-0.00470302	-0.00470302	
0.021	4.84292	0.0569619	-0.00478595	-0.00478595	-0.00478595	
0.022	4.91144	0.0617479	-0.00484969	-0.00484969	-0.00484969	
0.023	4.96057	0.0665976	-0.00489398	-0.00489398	-0.00489398	
0.024	4.99013	0.0714915	-0.00491864	-0.00491864	-0.00491864	
0.025	5	0.0764102	-0.00492359	-0.00492359	-0.00492359	
0.026	4.99013	0.0813338	-0.0049088	-0.0049088	-0.0049088	
0.027	4.96057	0.0862426	-0.00487433	-0.00487433	-0.00487433	
0.028	4.91144	0.0911169	-0.00482032	-0.00482032	-0.00482032	
0.029	4.84292	0.0959372	-0.00474698	-0.00474698	-0.00474698	
0.03	4.75528	0.100684	-0.0046546	-0.0046546	-0.0046546	
0.031	4.64888	0.105339	-0.00454354	-0.00454354	-0.00454354	
0.032	4.52414	0.109882	-0.00441425	-0.00441425	-0.00441425	
0.033	4.38153	0.114297	-0.00426724	-0.00426724	-0.00426724	
0.034	4.22164	0.118564	-0.00410308	-0.00410308	-0.00410308	
0.035	4.04508	0.122667	-0.00392242	-0.00392242	-0.00392242	
0.036	3.85257	0.126589	-0.00372598	-0.00372598	-0.00372598	
0.037	3.64484	0.130315	-0.00351453	-0.00351453	-0.00351453	
0.038	3.42274	0.13383	-0.00328891	-0.00328891	-0.00328891	
0.039	3.18712	0.137119	-0.00305	-0.00305	-0.00305	
0.04	2.93893	0.140169	-0.00279876	-0.00279876	-0.00279876	
0.041	2.67913	0.142967	-0.00253617	-0.00253617	-0.00253617	
0.042	2.40877	0.145504	-0.00226326	-0.00226326	-0.00226326	
0.043	2.1289	0.147767	-0.00198113	-0.00198113	-0.00198113	
0.044	1.84062	0.149748	-0.00169087	-0.00169087	-0.00169087	
0.045	1.54508	0.151439	-0.00139365	-0.00139365	-0.00139365	
0.046	1.24345	0.152833	-0.00109062	-0.00109062	-0.00109062	
0.047	0.936907	0.153923	-0.000782983	-0.000782983	-0.000782983	
0.048	0.626666	0.154706	-0.00047196	-0.00047196	-0.00047196	
0.049	0.313953	0.155178	-0.000158774	-0.000158774	-0.000158774	
0.05	-1.04899e-14	0.155337	0.000155337	0.000155337	0.000155337	
0.051	-0.313953	0.155182	0.000469134	0.000469134	0.000469134	
0.052	-0.626666	0.154712	0.000781379	0.000781379	0.000781379	
0.053	-0.936907	0.153931	0.00109084	0.00109084	0.00109084	
0.054	-1.24345	0.15284	0.00139629	0.00139629	0.00139629	
0.055	-1.54508	0.151444	0.00169653	0.00169653	0.00169653	
0.056	-1.84062	0.149747	0.00199037	0.00199037	0.00199037	
0.057	-2.1289	0.147757	0.00227665	0.00227665	0.00227665	
0.058	-2.40877	0.14548	0.00255425	0.00255425	0.00255425	
0.059	-2.67913	0.142926	0.00282206	0.00282206	0.00282206	
0.06	-2.93893	0.140104	0.00307903	0.00307903	0.00307903	
0.061	-3.18712	0.137025	0.00332414	0.00332414	0.00332414	
0.062	-3.42274	0.133701	0.00355644	0.00355644	0.00355644	
0.063	-3.64484	0.130144	0.00377499	0.00377499	0.00377499	
0.064	-3.85257	0.126369	0.00397894	0.00397894	0.00397894	
0.065	-4.04508	0.122391	0.00416748	0.00416748	0.00416748	
0.066	-4.22164	0.118223	0.00433986	0.00433986	0.00433986	
0.067	-4.38153	0.113883	0.00449542	0.00449542	0.00449542	
0.068	-4.52414	0.109388	0.00463352	0.00463352	0.00463352	
0.069	-4.64888	0.104754	0.00475364	0.00475364	0.00475364	
0.07	-4.75528	0.100001	0.00485528	0.00485528	0.00485528	
0.071	-4.84292	0.0951453	0.00493806	0.00493806	0.00493806	
0.072	-4.91144	0.0902073	0.00500164	0.00500164	0.00500164	
0.073	-4.96057	0.0852056	0.00504578	0.00504578	0.00504578	
0.074	-4.99013	0.0801598	0.00507029	0.00507029	0.00507029	
0.075	-5	0.0750896	0.00507509	0.00507509	0.00507509	
0.076	-4.99013	0.0700145	0.00506015	0.00506015	0.00506015	
0.077	-4.96057	0.0649543	0.00502553	0.00502553	0.00502553	
0.078	-4.91144	0.0599288	0.00497137	0.00497137	0.00497137	
0.079	-4.84292	0.0549574	0.00489787	0.00489787	0.00489787	
0.08	-4.75528	0.0500595	0.00480534	0.00480534	0.00480534	
0.081	-4.64888	0.0452542	0.00469414	0.00469414	0.00469414	
0.082	-4.52414	0.0405601	0.0045647	0.0045647	0.0045647	
0.083	-4.38153	0.0359954	0.00441753	0.00441753	0.00441753	
0.084	-4.22164	0.0315778	0.00425322	0.00425322	0.00425322	
0.085	-4.04508	0.0273246	0.00407241	0.00407241	0.00407241	
0.086	-3.85257	0.0232522	0.00387582	0.00387582	0.00387582	
0.087	-3.64484	0.0193764	0.00366422	0.00366422	0.00366422	
0.088	-3.42274	0.0157122	0.00343845	0.00343845	0.00343845	
0.089	-3.18712	0.0122737	0.00319939	0.00319939	0.00319939	
0.09	-2.93893	0.00907434	0.002948	0.002948	0.002948	
0.091	-2.67913	0.00612634	0.00268526	0.00268526	0.00268526	
0.092	-2.40877	0.00344108	0.00241221	0.00241221	0.00241221	
0.093	-2.1289	0.00102887	0.00212993	0.00212993	0.00212993	
0.094	-1.84062	-0.00110106	0.00183952	0.00183952	0.00183952	
0.095	-1.54508	-0.00294058	0.00154214	0.00154214	0.00154214	
0.096	-1.24345	-0.00448272	0.00123897	0.00123897	0.00123897	
0.097	-0.936907	-0.00572169	0.000931185	0.000931185	0.000931185	
0.098	-0.626666	-0.00665287	0.000620013	0.000620013	0.000620013	
0.099	-0.313953	-0.00727289	0.00030668	0.00030668	0.00030668	
0.1	2.09798e-14	-0.00757957	-7.57957e-06	-7.57957e-06	-7.57957e-06	
0.101	0.313953	-0.00757199	-0.000321525	-0.000321525	-0.000321525	
0.102	0.626666	-0.00725046	-0.000633917	-0.000633917	-0.000633917	
0.103	0.936907	-0.00661655	-0.000943523	-0.000943523	-0.000943523	
0.104	1.24345	-0.00567302	-0.00124912	-0.00124912	-0.00124912	
0.105	1.54508	-0.0044239	-0.00154951	-0.00154951	-0.00154951	
0.106	1.84062	-0.00287439	-0.0018435	-0.0018435	-0.0018435	
0.107	2.1289	-0.00103089	-0.00212993	-0.00212993	-0.00212993	
0.108	2.40877	0.00109903	-0.00240767	-0.00240767	-0.00240767	
0.109	2.67913	0.0035067	-0.00267563	-0.00267563	-0.00267563	
0.11	2.93893	0.00618233	-0.00293274	-0.00293274	-0.00293274	
0.111	3.18712	0.00911507	-0.003178	-0.003178	-0.003178	
0.112	3.42274	0.0122931	-0.00341044	-0.00341044	-0.00341044	
0.113	3.64484	0.0157035	-0.00362914	-0.00362914	-0.00362914	
0.114	3.85257	0.0193327	-0.00383323	-0.00383323	-0.00383323	
0.115	4.04508	0.0231659	-0.00402192	-0.00402192	-0.00402192	
0.116	4.22164	0.0271878	-0.00419445	-0.00419445	-0.00419445	
0.117	4.38153	0.0313823	-0.00435015	-0.00435015	-0.00435015	
0.118	4.52414	0.0357324	-0.0044884	-0.0044884	-0.0044884	
0.119	4.64888	0.0402208	-0.00460866	-0.00460866	-0.00460866	
0.12	4.75528	0.0448295	-0.00471045	-0.00471045	-0.00471045	
0.121	4.84292	0.0495399	-0.00479338	-0.00479338	-0.00479338	
0.122	4.91144	0.0543333	-0.0048571	-0.0048571	-0.0048571	
0.123	4.96057	0.0591904	-0.00490138	-0.00490138	-0.00490138	
0.124	4.99013	0.0640918	-0.00492604	-0.00492604	-0.00492604	
0.125	5	0.0690178	-0.00493098	-0.00493098	-0.00493098	
0.126	4.99013	0.0739488	-0.00491618	-0.00491618	-0.00491618	
0.127	4.96057	0.078865	-0.00488171	-0.00488171	-0.00488171	
0.128	4.91144	0.0837467	-0.00482769	-0.00482769	-0.00482769	
0.129	4.84292	0.0885744	-0.00475434	-0.00475434	-0.00475434	
0.13	4.75528	0.0933287	-0.00466195	-0.00466195	-0.00466195	
0.131	4.64888	0.0979907	-0.00455089	-0.00455089	-0.00455089	
0.132	4.52414	0.102542	-0.00442159	-0.00442159	-0.00442159	
0.133	4.38153	0.106963	-0.00427457	-0.00427457	-0.00427457	
0.134	4.22164	0.111238	-0.0041104	-0.0041104	-0.0041104	
0.135	4.04508	0.115348	-0.00392974	-0.00392974	-0.00392974	
0.136	3.85257	0.119278	-0.00373329	-0.00373329	-0.00373329	
0.137	3.64484	0.123011	-0.00352183	-0.00352183	-0.00352183	
0.138	3.42274	0.126533	-0.0032962	-0.0032962	-0.0032962	
0.139	3.18712	0.129829	-0.00305729	-0.00305729	-0.00305729	
0.14	2.93893	0.132887	-0.00280604	-0.00280604	-0.00280604	
0.141	2.67913	0.135693	-0.00254344	-0.00254344	-0.00254344	
0.142	2.40877	0.138236	-0.00227053	-0.00227053	-0.00227053	
0.143	2.1289	0.140507	-0.00198839	-0.00198839	-0.00198839	
0.144	1.84062	0.142495	-0.00169813	-0.00169813	-0.00169813	
0.145	1.54508	0.144193	-0.00140089	-0.00140089	-0.00140089	
0.146	1.24345	0.145594	-0.00109786	-0.00109786	-0.00109786	
0.147	0.936907	0.146692	-0.000790215	-0.000790215	-0.000790215	
0.148	0.626666	0.147482	-0.000479184	-0.000479184	-0.000479184	
0.149	0.313953	0.147961	-0.000165991	-0.000165991	-0.000165991	
0.15	-3.36902e-14	0.148127	0.000148127	0.000148127	0.000148127	
0.151	-0.313953	0.147979	0.000461932	0.000461932	0.000461932	
0.152	-0.626666	0.147517	0.000774183	0.000774183	0.000774183	
0.153	-0.936907	0.146743	0.00108365	0.00108365	0.00108365	
0.154	-1.24345	0.145659	0.00138911	0.00138911	0.00138911	
0.155	-1.54508	0.14427	0.00168936	0.00168936	0.00168936	
0.156	-1.84062	0.142581	0.0019832	0.0019832	0.0019832	
0.157	-2.1289	0.140598	0.00226949	0.00226949	0.00226949	
0.158	-2.40877	0.138328	0.0025471	0.0025471	0.0025471	
0.159	-2.67913	0.135781	0.00281492	0.00281492	0.00281492	
0.16	-2.93893	0.132966	0.00307189	0.00307189	0.00307189	
0.161	-3.18712	0.129894	0.00331701	0.00331701	0.00331701	
0.162	-3.42274	0.126577	0.00354931	0.00354931	0.00354931	
0.163	-3.64484	0.123028	0.00376787	0.00376787	0.00376787	
0.164	-3.85257	0.11926	0.00397183	0.00397183	0.00397183	
0.165	-4.04508	0.115288	0.00416037	0.00416037	0.00416037	
0.166	-4.22164	0.111128	0.00433277	0.00433277	0.00433277	
0.167	-4.38153	0.106795	0.00448833	0.00448833	0.00448833	
0.168	-4.52414	0.102307	0.00462644	0.00462644	0.00462644	
0.169	-4.64888	0.0976803	0.00474656	0.00474656	0.00474656	
0.17	-4.75528	0.0929337	0.00484822	0.00484822	0.00484822	
0.171	-4.84292	0.0880855	0.004931	0.004931	0.004931	
0.172	-4.91144	0.0831545	0.00499459	0.00499459	0.00499459	
0.173	-4.96057	0.0781599	0.00503873	0.00503873	0.00503873	
0.174	-4.99013	0.0731212	0.00506325	0.00506325	0.00506325	
0.175	-5	0.0680579	0.00506806	0.00506806	0.00506806	
0.176	-4.99013	0.0629899	0.00505312	0.00505312	0.00505312	
0.177	-4.96057	0.0579367	0.00501851	0.00501851	0.00501851	
0.178	-4.91144	0.0529182	0.00496435	0.00496435	0.00496435	
0.179	-4.84292	0.0479539	0.00489087	0.00489087	0.00489087	
0.18	-4.75528	0.043063	0.00479835	0.00479835	0.00479835	
0.181	-4.64888	0.0382647	0.00468715	0.00468715	0.00468715	
0.182	-4.52414	0.0335775	0.00455771	0.00455771	0.00455771	
0.183	-4.38153	0.0290198	0.00441055	0.00441055	0.00441055	
0.184	-4.22164	0.0246092	0.00424625	0.00424625	0.00424625	
0.185	-4.04508	0.020363	0.00406545	0.00406545	0.00406545	
0.186	-3.85257	0.0162976	0.00386886	0.00386886	0.00386886	
0.187	-3.64484	0.0124287	0.00365727	0.00365727	0.00365727	
0.188	-3.42274	0.00877142	0.00343151	0.00343151	0.00343151	
0.189	-3.18712	0.00533991	0.00319246	0.00319246	0.00319246	
0.19	-2.93893	0.00214745	0.00294107	0.00294107	0.00294107	
0.191	-2.67913	-0.000793624	0.00267834	0.00267834	0.00267834	
0.192	-2.40877	-0.00347196	0.0024053	0.0024053	0.0024053	
0.193	-2.1289	-0.00587726	0.00212302	0.00212302	0.00212302	
0.194	-1.84062	-0.00800028	0.00183262	0.00183262	0.00183262	
0.195	-1.54508	-0.0098329	0.00153525	0.00153525	0.00153525	
0.196	-1.24345	-0.0113682	0.00123208	0.00123208	0.00123208	
0.197	-0.936907	-0.0126002	0.000924306	0.000924306	0.000924306	
0.198	-0.626666	-0.0135245	0.000613142	0.000613142	0.000613142	
0.199	-0.313953	-0.0141377	0.000299815	0.000299815	0.000299815	
0.2	4.19596e-14	-0.0144375	-1.44375e-05	-1.44375e-05	-1.44375e-05	
0.201	0.313953	-0.0144231	-0.000328376	-0.000328376	-0.000328376	
0.202	0.626666	-0.0140947	-0.000640761	-0.000640761	-0.000640761	
0.203	0.936907	-0.0134539	-0.00095036	-0.00095036	-0.00095036	
0.204	1.24345	-0.0125036	-0.00125595	-0.00125595	-0.00125595	
0.205	1.54508	-0.0112476	-0.00155633	-0.00155633	-0.00155633	
0.206	1.84062	-0.00969128	-0.00185031	-0.00185031	-0.00185031	
0.207	2.1289	-0.00784096	-0.00213674	-0.00213674	-0.00213674	
0.208	2.40877	-0.00570423	-0.00241447	-0.00241447	-0.00241447	
0.209	2.67913	-0.00328975	-0.00268242	-0.00268242	-0.00268242	
0.21	2.93893	-0.000607331	-0.00293953	-0.00293953	-0.00293953	
0.211	3.18712	0.0023322	-0.00318479	-0.00318479	-0.00318479	
0.212	3.42274	0.00551699	-0.00341722	-0.00341722	-0.00341722	
0.213	3.64484	0.00893421	-0.00363591	-0.00363591	-0.00363591	
0.214	3.85257	0.0125701	-0.00384	-0.00384	-0.00384	
0.215	4.04508	0.0164101	-0.00402867	-0.00402867	-0.00402867	
0.216	4.22164	0.0204388	-0.0042012	-0.0042012	-0.0042012	
0.217	4.38153	0.02464	-0.00435689	-0.00435689	-0.00435689	
0.218	4.52414	0.0289969	-0.00449514	-0.00449514	-0.00449514	
0.219	4.64888	0.033492	-0.00461539	-0.00461539	-0.00461539	
0.22	4.75528	0.0381074	-0.00471718	-0.00471718	-0.00471718	
0.221	4.84292	0.0428246	-0.00480009	-0.00480009	-0.00480009	
0.222	4.91144	0.0476247	-0.00486381	-0.00486381	-0.00486381	
0.223	4.96057	0.0524885	-0.00490809	-0.00490809	-0.00490809	
0.224	4.99013	0.0573966	-0.00493274	-0.00493274	-0.00493274	
0.225	5	0.0623293	-0.00493767	-0.00493767	-0.00493767	
0.226	4.99013	0.067267	-0.00492287	-0.00492287	-0.00492287	
0.227	4.96057	0.0721898	-0.00488838	-0.00488838	-0.00488838	
0.228	4.91144	0.0770782	-0.00483436	-0.00483436	-0.00483436	
0.229	4.84292	0.0819126	-0.004761	-0.004761	-0.004761	
0.23	4.75528	0.0866736	-0.00466861	-0.00466861	-0.00466861	
0.231	4.64888	0.0913422	-0.00455754	-0.00455754	-0.00455754	
0.232	4.52414	0.0958997	-0.00442824	-0.00442824	-0.00442824	
0.233	4.38153	0.100328	-0.00428121	-0.00428121	-0.00428121	
0.234	4.22164	0.104609	-0.00411703	-0.00411703	-0.00411703	
0.235	4.04508	0.108726	-0.00393636	-0.00393636	-0.00393636	
0.236	3.85257	0.112663	-0.0037399	-0.0037399	-0.0037399	
0.237	3.64484	0.116402	-0.00352844	-0.00352844	-0.00352844	
0.238	3.42274	0.119931	-0.0033028	-0.0033028	-0.0033028	
0.239	3.18712	0.123234	-0.00306389	-0.00306389	-0.00306389	
0.24	2.93893	0.126298	-0.00281263	-0.00281263	-0.00281263	
0.241	2.67913	0.12911	-0.00255002	-0.00255002	-0.00255002	
0.242	2.40877	0.13166	-0.00227711	-0.00227711	-0.00227711	
0.243	2.1289	0.133937	-0.00199496	-0.00199496	-0.00199496	
0.244	1.84062	0.135932	-0.00170469	-0.00170469	-0.00170469	
0.245	1.54508	0.137637	-0.00140745	-0.00140745	-0.00140745	
0.246	1.24345	0.139044	-0.0011044	-0.0011044	-0.0011044	
0.247	0.936907	0.140149	-0.000796758	-0.000796758	-0.000796758	
0.248	0.626666	0.140946	-0.000485721	-0.000485721	-0.000485721	
0.249	0.313953	0.141431	-0.000172521	-0.000172521	-0.000172521	
0.25	-5.02291e-14	0.141604	0.000141604	0.000141604	0.000141604	
0.251	-0.313953	0.141462	0.000455415	0.000455415	0.000455415	
0.252	-0.626666	0.141007	0.000767673	0.000767673	0.000767673	
0.253	-0.936907	0.140239	0.00107715	0.00107715	0.00107715	
0.254	-1.24345	0.139162	0.00138261	0.00138261	0.00138261	
0.255	-1.54508	0.137779	0.00168286	0.00168286	0.00168286	
0.256	-1.84062	0.136097	0.00197672	0.00197672	0.00197672	
0.257	-2.1289	0.13412	0.00226302	0.00226302	0.00226302	
0.258	-2.40877	0.131857	0.00254063	0.00254063	0.00254063	
0.259	-2.67913	0.129316	0.00280845	0.00280845	0.00280845	
0.26	-2.93893	0.126508	0.00306543	0.00306543	0.00306543	
0.261	-3.18712	0.123442	0.00331056	0.00331056	0.00331056	
0.262	-3.42274	0.120132	0.00354287	0.00354287	0.00354287	
0.263	-3.64484	0.116589	0.00376143	0.00376143	0.00376143	
0.264	-3.85257	0.112827	0.00396539	0.00396539	0.00396539	
0.265	-4.04508	0.108862	0.00415395	0.00415395	0.00415395	
0.266	-4.22164	0.104708	0.00432635	0.00432635	0.00432635	
0.267	-4.38153	0.100382	0.00448192	0.00448192	0.00448192	
0.268	-4.52414	0.0958998	0.00462004	0.00462004	0.00462004	
0.269	-4.64888	0.0912798	0.00474016	0.00474016	0.00474016	
0.27	-4.75528	0.0865397	0.00484182	0.00484182	0.00484182	
0.271	-4.84292	0.0816978	0.00492461	0.00492461	0.00492461	
0.272	-4.91144	0.0767732	0.00498821	0.00498821	0.00498821	
0.273	-4.96057	0.071785	0.00503236	0.00503236	0.00503236	
0.274	-4.99013	0.0667526	0.00505689	0.00505689	0.00505689	
0.275	-5	0.0616958	0.0050617	0.0050617	0.0050617	
0.276	-4.99013	0.0566341	0.00504677	0.00504677	0.00504677	
0.277	-4.96057	0.0515873	0.00501216	0.00501216	0.00501216	
0.278	-4.91144	0.0465751	0.00495801	0.00495801	0.00495801	
0.279	-4.84292	0.0416171	0.00488453	0.00488453	0.00488453	
0.28	-4.75528	0.0367326	0.00479202	0.00479202	0.00479202	
0.281	-4.64888	0.0319406	0.00468082	0.00468082	0.00468082	
0.282	-4.52414	0.0272598	0.0045514	0.0045514	0.0045514	
0.283	-4.38153	0.0227084	0.00440424	0.00440424	0.00440424	
0.284	-4.22164	0.0183041	0.00423994	0.00423994	0.00423994	
0.285	-4.04508	0.0140642	0.00405915	0.00405915	0.00405915	
0.286	-3.85257	0.010005	0.00386257	0.00386257	0.00386257	
0.287	-3.64484	0.00614245	0.00365099	0.00365099	0.00365099	
0.288	-3.42274	0.00249147	0.00342523	0.00342523	0.00342523	
0.289	-3.18712	-0.00093376	0.00318619	0.00318619	0.00318619	
0.29	-2.93893	-0.00411995	0.00293481	0.00293481	0.00293481	
0.291	-2.67913	-0.00705475	0.00267208	0.00267208	0.00267208	
0.292	-2.40877	-0.00972683	0.00239904	0.00239904	0.00239904	
0.293	-2.1289	-0.0121259	0.00211677	0.00211677	0.00211677	
0.294	-1.84062	-0.0142426	0.00182638	0.00182638	0.00182638	
0.295	-1.54508	-0.016069	0.00152902	0.00152902	0.00152902	
0.296	-1.24345	-0.017598	0.00122585	0.00122585	0.00122585	
0.297	-0.936907	-0.0188239	0.000918083	0.000918083	0.000918083	
0.298	-0.626666	-0.019742	0.000606924	0.000606924	0.000606924	
0.299	-0.313953	-0.0203489	0.000293604	0.000293604	0.000293604	
0.3	6.73803e-14	-0.0206425	-2.06425e-05	-2.06425e-05	-2.06425e-05	
0.301	0.313953	-0.0206219	-0.000334574	-0.000334574	-0.000334574	
0.302	0.626666	-0.0202873	-0.000646953	-0.000646953	-0.000646953	
0.303	0.936907	-0.0196403	-0.000956547	-0.000956547	-0.000956547	
0.304	1.24345	-0.0186838	-0.00126213	-0.00126213	-0.00126213	
0.305	1.54508	-0.0174217	-0.00156251	-0.00156251	-0.00156251	
0.306	1.84062	-0.0158591	-0.00185648	-0.00185648	-0.00185648	
0.307	2.1289	-0.0140027	-0.0021429	-0.0021429	-0.0021429	
0.308	2.40877	-0.0118598	-0.00242063	-0.00242063	-0.00242063	
0.309	2.67913	-0.00943914	-0.00268857	-0.00268857	-0.00268857	
0.31	2.93893	-0.00675056	-0.00294568	-0.00294568	-0.00294568	
0.311	3.18712	-0.00380489	-0.00319092	-0.00319092	-0.00319092	
0.312	3.42274	-0.000613961	-0.00342335	-0.00342335	-0.00342335	
0.313	3.64484	0.00280939	-0.00364203	-0.00364203	-0.00364203	
0.314	3.85257	0.00645142	-0.00384611	-0.00384611	-0.00384611	
0.315	4.04508	0.0102975	-0.00403479	-0.00403479	-0.00403479	
0.316	4.22164	0.0143323	-0.00420731	-0.00420731	-0.00420731	
0.317	4.38153	0.0185396	-0.00436299	-0.00436299	-0.00436299	
0.318	4.52414	0.0229026	-0.00450123	-0.00450123	-0.00450123	
0.319	4.64888	0.0274039	-0.00462148	-0.00462148	-0.00462148	
0.32	4.75528	0.0320253	-0.00472326	-0.00472326	-0.00472326	
0.321	4.84292	0.0367486	-0.00480617	-0.00480617	-0.00480617	
0.322	4.91144	0.0415548	-0.00486988	-0.00486988	-0.00486988	
0.323	4.96057	0.0464246	-0.00491415	-0.00491415	-0.00491415	
0.324	4.99013	0.0513388	-0.00493879	-0.00493879	-0.00493879	
0.325	5	0.0562776	-0.00494372	-0.00494372	-0.00494372	
0.326	4.99013	0.0612213	-0.00492891	-0.00492891	-0.00492891	
0.327	4.96057	0.0661502	-0.00489442	-0.00489442	-0.00489442	
0.328	4.91144	0.0710446	-0.00484039	-0.00484039	-0.00484039	
0.329	4.84292	0.075885	-0.00476703	-0.00476703	-0.00476703	
0.33	4.75528	0.0806521	-0.00467463	-0.00467463	-0.00467463	
0.331	4.64888	0.0853267	-0.00456356	-0.00456356	-0.00456356	
